! Touchstone file from project 
! Exported from ElectronicsDesktop 2016.2.0
# GHZ S DB R 50.000000
! Modal data exported
! Port[1] = Port1
! Port[2] = Port2
0.0003           -98.931          89.9994          -5.55507E-010    -0.000648        -5.55506E-010    -0.000648        -98.931          89.9994          
! Port Impedance50               0                50               0                

0.000301096      -98.8993         89.9993          -5.59572E-010    -0.000650367     -5.59573E-010    -0.000650367     -98.8993         89.9993          
! Port Impedance50               0                50               0                

0.000302192      -98.8677         89.9993          -5.63655E-010    -0.000652735     -5.63653E-010    -0.000652735     -98.8677         89.9993          
! Port Impedance50               0                50               0                

0.000303288      -98.8363         89.9993          -5.67751E-010    -0.000655102     -5.67749E-010    -0.000655102     -98.8363         89.9993          
! Port Impedance50               0                50               0                

0.000304384      -98.8049         89.9993          -5.71862E-010    -0.000657469     -5.71859E-010    -0.000657469     -98.8049         89.9993          
! Port Impedance50               0                50               0                

0.00030548       -98.7737         89.9993          -5.75986E-010    -0.000659837     -5.75986E-010    -0.000659837     -98.7737         89.9993          
! Port Impedance50               0                50               0                

0.000306576      -98.7426         89.9993          -5.80128E-010    -0.000662204     -5.80126E-010    -0.000662204     -98.7426         89.9993          
! Port Impedance50               0                50               0                

0.000307672      -98.7116         89.9993          -5.84283E-010    -0.000664571     -5.84281E-010    -0.000664571     -98.7116         89.9993          
! Port Impedance50               0                50               0                

0.000308768      -98.6807         89.9993          -5.88452E-010    -0.000666939     -5.88451E-010    -0.000666939     -98.6807         89.9993          
! Port Impedance50               0                50               0                

0.000309864      -98.65           89.9993          -5.92638E-010    -0.000669306     -5.92636E-010    -0.000669306     -98.65           89.9993          
! Port Impedance50               0                50               0                

0.00031096       -98.6193         89.9993          -5.96837E-010    -0.000671673     -5.96837E-010    -0.000671673     -98.6193         89.9993          
! Port Impedance50               0                50               0                

0.000312056      -98.5887         89.9993          -6.0105E-010     -0.000674041     -6.01052E-010    -0.000674041     -98.5887         89.9993          
! Port Impedance50               0                50               0                

0.000313152      -98.5583         89.9993          -6.05281E-010    -0.000676408     -6.05279E-010    -0.000676408     -98.5583         89.9993          
! Port Impedance50               0                50               0                

0.000314248      -98.5279         89.9993          -6.09525E-010    -0.000678775     -6.09524E-010    -0.000678775     -98.5279         89.9993          
! Port Impedance50               0                50               0                

0.000315344      -98.4977         89.9993          -6.13784E-010    -0.000681143     -6.13784E-010    -0.000681143     -98.4977         89.9993          
! Port Impedance50               0                50               0                

0.00031644       -98.4676         89.9993          -6.18058E-010    -0.00068351      -6.18057E-010    -0.00068351      -98.4676         89.9993          
! Port Impedance50               0                50               0                

0.000317536      -98.4375         89.9993          -6.22347E-010    -0.000685877     -6.22346E-010    -0.000685877     -98.4375         89.9993          
! Port Impedance50               0                50               0                

0.000318632      -98.4076         89.9993          -6.2665E-010     -0.000688245     -6.26649E-010    -0.000688245     -98.4076         89.9993          
! Port Impedance50               0                50               0                

0.000319728      -98.3778         89.9993          -6.30968E-010    -0.000690612     -6.30968E-010    -0.000690612     -98.3778         89.9993          
! Port Impedance50               0                50               0                

0.000320824      -98.348          89.9993          -6.353E-010      -0.000692979     -6.35303E-010    -0.000692979     -98.348          89.9993          
! Port Impedance50               0                50               0                

0.00032192       -98.3184         89.9993          -6.3965E-010     -0.000695347     -6.3965E-010     -0.000695347     -98.3184         89.9993          
! Port Impedance50               0                50               0                

0.000323016      -98.2889         89.9993          -6.44013E-010    -0.000697714     -6.44012E-010    -0.000697714     -98.2889         89.9993          
! Port Impedance50               0                50               0                

0.000324112      -98.2595         89.9993          -6.48389E-010    -0.000700081     -6.48391E-010    -0.000700081     -98.2595         89.9993          
! Port Impedance50               0                50               0                

0.000325208      -98.2302         89.9993          -6.52782E-010    -0.000702449     -6.52782E-010    -0.000702449     -98.2302         89.9993          
! Port Impedance50               0                50               0                

0.000326304      -98.2009         89.9993          -6.57191E-010    -0.000704816     -6.57189E-010    -0.000704816     -98.2009         89.9993          
! Port Impedance50               0                50               0                

0.0003274        -98.1718         89.9993          -6.61613E-010    -0.000707183     -6.61612E-010    -0.000707183     -98.1718         89.9993          
! Port Impedance50               0                50               0                

0.000328496      -98.1428         89.9993          -6.66048E-010    -0.000709551     -6.66049E-010    -0.000709551     -98.1428         89.9993          
! Port Impedance50               0                50               0                

0.000329592      -98.1139         89.9993          -6.70501E-010    -0.000711918     -6.70499E-010    -0.000711918     -98.1139         89.9993          
! Port Impedance50               0                50               0                

0.000330688      -98.085          89.9993          -6.74968E-010    -0.000714286     -6.74967E-010    -0.000714286     -98.085          89.9993          
! Port Impedance50               0                50               0                

0.000331784      -98.0563         89.9993          -6.79449E-010    -0.000716653     -6.79448E-010    -0.000716653     -98.0563         89.9993          
! Port Impedance50               0                50               0                

0.00033288       -98.0276         89.9993          -6.83946E-010    -0.00071902      -6.83944E-010    -0.00071902      -98.0276         89.9993          
! Port Impedance50               0                50               0                

0.000333976      -97.9991         89.9993          -6.88458E-010    -0.000721388     -6.88455E-010    -0.000721388     -97.9991         89.9993          
! Port Impedance50               0                50               0                

0.000335072      -97.9706         89.9993          -6.92981E-010    -0.000723755     -6.92982E-010    -0.000723755     -97.9706         89.9993          
! Port Impedance50               0                50               0                

0.000336168      -97.9423         89.9993          -6.97523E-010    -0.000726122     -6.97522E-010    -0.000726122     -97.9423         89.9993          
! Port Impedance50               0                50               0                

0.000337264      -97.914          89.9993          -7.0208E-010     -0.00072849      -7.02077E-010    -0.00072849      -97.914          89.9993          
! Port Impedance50               0                50               0                

0.00033836       -97.8858         89.9993          -7.06649E-010    -0.000730857     -7.0665E-010     -0.000730857     -97.8858         89.9993          
! Port Impedance50               0                50               0                

0.000339456      -97.8577         89.9993          -7.11235E-010    -0.000733224     -7.11234E-010    -0.000733224     -97.8577         89.9993          
! Port Impedance50               0                50               0                

0.000340552      -97.8297         89.9993          -7.15837E-010    -0.000735592     -7.15832E-010    -0.000735592     -97.8297         89.9993          
! Port Impedance50               0                50               0                

0.000341648      -97.8018         89.9993          -7.20449E-010    -0.000737959     -7.20449E-010    -0.000737959     -97.8018         89.9993          
! Port Impedance50               0                50               0                

0.000342744      -97.774          89.9993          -7.25079E-010    -0.000740326     -7.25079E-010    -0.000740326     -97.774          89.9993          
! Port Impedance50               0                50               0                

0.00034384       -97.7463         89.9993          -7.29726E-010    -0.000742694     -7.29722E-010    -0.000742694     -97.7463         89.9993          
! Port Impedance50               0                50               0                

0.000344936      -97.7186         89.9993          -7.34383E-010    -0.000745061     -7.34385E-010    -0.000745061     -97.7186         89.9993          
! Port Impedance50               0                50               0                

0.000346032      -97.6911         89.9993          -7.39058E-010    -0.000747428     -7.39057E-010    -0.000747428     -97.6911         89.9993          
! Port Impedance50               0                50               0                

0.000347128      -97.6636         89.9993          -7.43747E-010    -0.000749796     -7.43746E-010    -0.000749796     -97.6636         89.9993          
! Port Impedance50               0                50               0                

0.000348224      -97.6362         89.9992          -7.48451E-010    -0.000752163     -7.48449E-010    -0.000752163     -97.6362         89.9992          
! Port Impedance50               0                50               0                

0.00034932       -97.6089         89.9992          -7.5317E-010     -0.00075453      -7.53169E-010    -0.00075453      -97.6089         89.9992          
! Port Impedance50               0                50               0                

0.000350416      -97.5817         89.9992          -7.57903E-010    -0.000756898     -7.57903E-010    -0.000756898     -97.5817         89.9992          
! Port Impedance50               0                50               0                

0.000351512      -97.5546         89.9992          -7.6265E-010     -0.000759265     -7.62651E-010    -0.000759265     -97.5546         89.9992          
! Port Impedance50               0                50               0                

0.000352608      -97.5275         89.9992          -7.67414E-010    -0.000761632     -7.67414E-010    -0.000761632     -97.5275         89.9992          
! Port Impedance50               0                50               0                

0.000353704      -97.5006         89.9992          -7.72192E-010    -0.000764        -7.72192E-010    -0.000764        -97.5006         89.9992          
! Port Impedance50               0                50               0                

0.0003548        -97.4737         89.9992          -7.76985E-010    -0.000766367     -7.76985E-010    -0.000766367     -97.4737         89.9992          
! Port Impedance50               0                50               0                

0.000355896      -97.4469         89.9992          -7.81793E-010    -0.000768734     -7.81792E-010    -0.000768734     -97.4469         89.9992          
! Port Impedance50               0                50               0                

0.000356992      -97.4202         89.9992          -7.86617E-010    -0.000771102     -7.86614E-010    -0.000771102     -97.4202         89.9992          
! Port Impedance50               0                50               0                

0.000358087      -97.3936         89.9992          -7.91452E-010    -0.000773469     -7.91452E-010    -0.000773469     -97.3936         89.9992          
! Port Impedance50               0                50               0                

0.000359183      -97.3671         89.9992          -7.96306E-010    -0.000775836     -7.96304E-010    -0.000775836     -97.3671         89.9992          
! Port Impedance50               0                50               0                

0.000360279      -97.3406         89.9992          -8.01173E-010    -0.000778204     -8.01171E-010    -0.000778204     -97.3406         89.9992          
! Port Impedance50               0                50               0                

0.000361375      -97.3142         89.9992          -8.06053E-010    -0.000780571     -8.06054E-010    -0.000780571     -97.3142         89.9992          
! Port Impedance50               0                50               0                

0.000362471      -97.2879         89.9992          -8.1095E-010     -0.000782938     -8.1095E-010     -0.000782938     -97.2879         89.9992          
! Port Impedance50               0                50               0                

0.000363567      -97.2617         89.9992          -8.15862E-010    -0.000785306     -8.15863E-010    -0.000785306     -97.2617         89.9992          
! Port Impedance50               0                50               0                

0.000364663      -97.2355         89.9992          -8.20788E-010    -0.000787673     -8.20788E-010    -0.000787673     -97.2355         89.9992          
! Port Impedance50               0                50               0                

0.000365759      -97.2095         89.9992          -8.25731E-010    -0.00079004      -8.25728E-010    -0.00079004      -97.2095         89.9992          
! Port Impedance50               0                50               0                

0.000366855      -97.1835         89.9992          -8.30686E-010    -0.000792408     -8.30683E-010    -0.000792408     -97.1835         89.9992          
! Port Impedance50               0                50               0                

0.000367951      -97.1576         89.9992          -8.35658E-010    -0.000794775     -8.35654E-010    -0.000794775     -97.1576         89.9992          
! Port Impedance50               0                50               0                

0.000369047      -97.1317         89.9992          -8.40643E-010    -0.000797142     -8.40641E-010    -0.000797142     -97.1317         89.9992          
! Port Impedance50               0                50               0                

0.000370143      -97.106          89.9992          -8.45641E-010    -0.00079951      -8.45643E-010    -0.00079951      -97.106          89.9992          
! Port Impedance50               0                50               0                

0.000371239      -97.0803         89.9992          -8.50659E-010    -0.000801877     -8.50655E-010    -0.000801877     -97.0803         89.9992          
! Port Impedance50               0                50               0                

0.000372335      -97.0547         89.9992          -8.55688E-010    -0.000804244     -8.55687E-010    -0.000804244     -97.0547         89.9992          
! Port Impedance50               0                50               0                

0.000373431      -97.0292         89.9992          -8.60734E-010    -0.000806612     -8.60733E-010    -0.000806612     -97.0292         89.9992          
! Port Impedance50               0                50               0                

0.000374527      -97.0037         89.9992          -8.65792E-010    -0.000808979     -8.65792E-010    -0.000808979     -97.0037         89.9992          
! Port Impedance50               0                50               0                

0.000375623      -96.9783         89.9992          -8.70867E-010    -0.000811346     -8.70866E-010    -0.000811346     -96.9783         89.9992          
! Port Impedance50               0                50               0                

0.000376719      -96.953          89.9992          -8.75957E-010    -0.000813714     -8.75956E-010    -0.000813714     -96.953          89.9992          
! Port Impedance50               0                50               0                

0.000377815      -96.9278         89.9992          -8.81061E-010    -0.000816081     -8.81061E-010    -0.000816081     -96.9278         89.9992          
! Port Impedance50               0                50               0                

0.000378911      -96.9026         89.9992          -8.8618E-010     -0.000818448     -8.86178E-010    -0.000818448     -96.9026         89.9992          
! Port Impedance50               0                50               0                

0.000380007      -96.8775         89.9992          -8.91313E-010    -0.000820816     -8.91312E-010    -0.000820816     -96.8775         89.9992          
! Port Impedance50               0                50               0                

0.000381103      -96.8525         89.9992          -8.96461E-010    -0.000823183     -8.96463E-010    -0.000823183     -96.8525         89.9992          
! Port Impedance50               0                50               0                

0.000382199      -96.8276         89.9992          -9.01626E-010    -0.00082555      -9.01625E-010    -0.00082555      -96.8276         89.9992          
! Port Impedance50               0                50               0                

0.000383295      -96.8027         89.9992          -9.06805E-010    -0.000827918     -9.06804E-010    -0.000827918     -96.8027         89.9992          
! Port Impedance50               0                50               0                

0.000384391      -96.7779         89.9992          -9.11998E-010    -0.000830285     -9.11996E-010    -0.000830285     -96.7779         89.9992          
! Port Impedance50               0                50               0                

0.000385487      -96.7532         89.9992          -9.17206E-010    -0.000832652     -9.17205E-010    -0.000832652     -96.7532         89.9992          
! Port Impedance50               0                50               0                

0.000386583      -96.7285         89.9992          -9.22429E-010    -0.00083502      -9.22426E-010    -0.00083502      -96.7285         89.9992          
! Port Impedance50               0                50               0                

0.000387679      -96.7039         89.9992          -9.27666E-010    -0.000837387     -9.27667E-010    -0.000837387     -96.7039         89.9992          
! Port Impedance50               0                50               0                

0.000388775      -96.6794         89.9992          -9.32918E-010    -0.000839754     -9.32919E-010    -0.000839754     -96.6794         89.9992          
! Port Impedance50               0                50               0                

0.000389871      -96.655          89.9992          -9.38186E-010    -0.000842122     -9.38186E-010    -0.000842122     -96.655          89.9992          
