!Agilent Technologies,E5071C,MY46522545,B.13.01
!Date: Tue Sep 24 16:45:52 2019
!Data & Calibration Information:
!Freq	S11:SOLT2(ON)	S21:SOLT2(ON)	S12:SOLT2(ON)	S22:SOLT2(ON)
!PortZ  Port1:50+j0    Port2:50+j0
!Above PortZ is port z conversion or system Z0 setting when saving the data.
!When reading, reference impedance value at option line is always used.
# Hz S dB R 50
300000	-4.306753e+001	9.968920e+001	-4.277632e-002	-5.091804e-001	-1.737780e-002	-2.676344e-001	-3.945896e+001	6.744054e+001
301096	-4.009434e+001	1.000398e+002	-2.938137e-002	-3.761810e-001	-2.959569e-002	-4.341578e-001	-4.064930e+001	8.409518e+001
302192	-4.040911e+001	7.110875e+001	-2.245892e-002	-3.849342e-001	-3.859578e-002	-4.417287e-001	-4.018931e+001	8.741642e+001
303288	-4.062424e+001	7.638475e+001	-4.618846e-002	-2.816400e-001	-1.364312e-002	-3.681489e-001	-4.207578e+001	1.017601e+002
304384	-4.073708e+001	9.758183e+001	-3.229713e-002	-5.159947e-001	1.381291e-002	-4.849372e-001	-4.107041e+001	8.112987e+001
305480	-4.384533e+001	6.770935e+001	-1.388028e-002	-4.476130e-001	-5.407258e-002	-3.848375e-001	-4.105734e+001	7.052251e+001
306576	-4.252230e+001	8.735572e+001	2.452935e-002	-1.705992e-001	-1.068332e-002	-4.681699e-001	-3.886599e+001	9.683326e+001
307672	-4.010614e+001	9.051115e+001	4.653959e-003	-5.624931e-001	3.507963e-003	-6.193261e-001	-3.801328e+001	9.542885e+001
308768	-4.186122e+001	7.157811e+001	-1.953227e-002	-5.010806e-001	-1.396434e-002	-5.130755e-001	-4.242157e+001	9.350496e+001
309864	-4.285015e+001	1.074999e+002	1.528690e-003	-3.976963e-001	-4.412629e-002	-5.364714e-001	-4.121629e+001	5.551839e+001
310960	-4.338002e+001	4.880042e+001	-3.301473e-002	-2.522118e-001	-1.727056e-002	-4.619843e-001	-3.910602e+001	6.379882e+001
312056	-3.882968e+001	7.382321e+001	-1.426217e-002	-4.690499e-001	-7.343988e-003	-4.526666e-001	-4.023567e+001	7.947414e+001
313152	-3.731513e+001	7.424572e+001	-2.398390e-002	-4.101805e-001	-1.352193e-002	-5.432518e-001	-4.092787e+001	9.536982e+001
314248	-4.029221e+001	8.099912e+001	-1.786644e-002	-2.806998e-001	-3.142216e-002	-5.990180e-001	-4.380242e+001	8.568578e+001
315344	-3.870599e+001	8.534741e+001	-1.761396e-002	-4.736332e-001	-1.453957e-002	-5.220487e-001	-4.294050e+001	7.885232e+001
316440	-4.003005e+001	7.379326e+001	-2.469435e-002	-6.011730e-001	-1.972570e-002	-4.722087e-001	-4.250211e+001	7.659499e+001
317536	-3.705648e+001	7.276814e+001	-3.828558e-002	-5.983287e-001	-5.032186e-003	-3.747995e-001	-4.157075e+001	9.087112e+001
318632	-4.092463e+001	9.626235e+001	-6.748632e-005	-6.185701e-001	-4.290563e-002	-3.707226e-001	-3.985953e+001	8.775935e+001
319728	-3.907714e+001	9.998170e+001	-1.059355e-002	-4.362440e-001	-4.201549e-002	-6.589636e-001	-3.937975e+001	7.677465e+001
320824	-4.216013e+001	8.927367e+001	-2.358752e-002	-5.393468e-001	-1.357718e-002	-3.767062e-001	-4.270665e+001	8.083893e+001
321920	-4.310617e+001	1.001552e+002	-2.085984e-002	-5.740342e-001	-1.016548e-002	-4.789784e-001	-4.193557e+001	8.128241e+001
323016	-4.017971e+001	7.550483e+001	-1.625346e-002	-3.865077e-001	-3.225441e-002	-2.534696e-001	-4.609361e+001	5.634102e+001
324112	-4.237312e+001	9.245211e+001	-2.562802e-002	-3.392554e-001	-2.039197e-002	-4.024010e-001	-4.351113e+001	7.710181e+001
325208	-4.137672e+001	8.386838e+001	-4.567554e-002	-4.773451e-001	-5.667924e-003	-3.639388e-001	-4.680647e+001	9.599633e+001
326304	-3.934528e+001	9.088714e+001	-7.363771e-003	-5.346631e-001	-1.075623e-002	-7.835867e-001	-3.765475e+001	8.687233e+001
327400	-4.158679e+001	6.340440e+001	-1.971940e-002	-4.826713e-001	-2.665071e-002	-4.894332e-001	-4.174479e+001	9.031347e+001
328496	-4.147299e+001	9.232390e+001	6.709459e-003	-3.892169e-001	-1.471430e-002	-3.090669e-001	-4.324766e+001	5.190993e+001
329592	-4.108441e+001	8.518776e+001	-3.440829e-002	-4.423018e-001	-1.505219e-002	-3.955727e-001	-4.276427e+001	9.421694e+001
330688	-4.469667e+001	1.048248e+002	-6.620688e-003	-3.498407e-001	-1.493791e-002	-2.902048e-001	-5.190707e+001	1.165527e+002
331784	-4.169822e+001	8.414530e+001	-2.255827e-002	-5.413383e-001	-4.866026e-002	-2.932589e-001	-4.799327e+001	6.497036e+001
332880	-4.120434e+001	1.019626e+002	-1.365088e-002	-5.049104e-001	-2.620608e-002	-5.494575e-001	-4.535568e+001	6.987406e+001
333976	-4.192309e+001	6.420159e+001	-3.336683e-002	-4.337422e-001	-2.593687e-002	-4.527663e-001	-4.145156e+001	6.845443e+001
335072	-4.096795e+001	9.174435e+001	-1.797322e-002	-5.096890e-001	-5.910273e-003	-5.058337e-001	-4.133930e+001	9.537918e+001
336168	-4.117178e+001	9.550279e+001	-7.946044e-003	-5.826808e-001	-3.124334e-002	-3.971389e-001	-4.265977e+001	8.599741e+001
337264	-4.020265e+001	9.404915e+001	-1.374715e-002	-3.094524e-001	-3.622930e-002	-4.329113e-001	-4.202582e+001	7.896981e+001
338360	-4.210612e+001	1.238625e+002	-2.658915e-003	-4.084544e-001	-3.871103e-002	-3.947056e-001	-4.057664e+001	6.750974e+001
339456	-4.052496e+001	9.586216e+001	-5.455252e-003	-5.213559e-001	-3.476780e-002	-4.554355e-001	-4.149018e+001	6.239994e+001
340552	-4.122078e+001	8.760768e+001	-1.255060e-002	-5.800168e-001	-1.315683e-002	-3.321760e-001	-4.423263e+001	7.842312e+001
341648	-4.338197e+001	1.063624e+002	-8.365471e-003	-4.460880e-001	-3.473573e-002	-4.282872e-001	-4.200167e+001	7.461266e+001
342744	-4.148990e+001	9.157870e+001	4.115487e-003	-5.089669e-001	-3.501688e-002	-3.707368e-001	-4.399074e+001	8.045948e+001
343840	-4.040565e+001	7.422158e+001	-3.429505e-002	-4.533183e-001	-1.163062e-002	-4.296222e-001	-4.139801e+001	8.733733e+001
344936	-4.384256e+001	1.000333e+002	-4.530950e-003	-3.433332e-001	-3.365939e-002	-3.015091e-001	-4.354433e+001	5.532206e+001
346032	-4.739699e+001	1.108359e+002	-4.877453e-002	-3.462350e-001	-9.305429e-004	-3.578825e-001	-4.185777e+001	1.002830e+002
347128	-4.258470e+001	7.223598e+001	-1.861851e-002	-3.367539e-001	-2.194533e-002	-5.059980e-001	-4.233706e+001	6.629627e+001
348224	-4.073481e+001	8.506257e+001	3.188327e-003	-4.930803e-001	-1.178828e-002	-3.682147e-001	-4.361492e+001	8.889298e+001
349320	-4.528169e+001	1.020609e+002	-1.009534e-002	-4.440188e-001	-1.472379e-002	-2.306504e-001	-4.869405e+001	1.256145e+002
350416	-4.338205e+001	9.657334e+001	-9.860364e-003	-3.970345e-001	-2.045873e-002	-5.132087e-001	-4.135713e+001	7.941450e+001
351512	-4.140321e+001	8.731576e+001	-6.499791e-003	-5.207093e-001	-2.260766e-002	-5.082079e-001	-4.649354e+001	5.750291e+001
352607	-4.021765e+001	8.372541e+001	-2.375465e-002	-5.075322e-001	-1.081216e-002	-6.253784e-001	-3.845992e+001	8.438485e+001
353703	-4.497613e+001	9.709822e+001	1.074426e-003	-3.171561e-001	-2.918413e-002	-3.084970e-001	-4.313947e+001	8.510668e+001
354799	-4.192687e+001	7.494137e+001	-1.877378e-002	-5.191369e-001	-1.882529e-002	-4.621110e-001	-4.258790e+001	7.963558e+001
355895	-4.005807e+001	1.053339e+002	6.536904e-003	-5.334380e-001	-4.159298e-002	-4.079477e-001	-4.272195e+001	8.914668e+001
356991	-4.513909e+001	9.183693e+001	-4.938723e-002	-3.122156e-001	-8.096345e-003	-4.454995e-001	-4.366944e+001	8.754155e+001
358087	-4.322902e+001	7.044964e+001	-1.827450e-002	-6.054795e-001	-5.525834e-003	-5.742269e-001	-4.431455e+001	7.543262e+001
359183	-4.000037e+001	8.993003e+001	-8.556478e-003	-5.593774e-001	-2.553215e-002	-3.894900e-001	-4.531728e+001	6.737985e+001
360279	-4.146897e+001	8.013097e+001	-5.126602e-003	-6.154464e-001	-9.651016e-003	-4.308925e-001	-4.253933e+001	7.658718e+001
361375	-4.122147e+001	8.703042e+001	-1.965524e-002	-4.222263e-001	-1.298698e-002	-5.206441e-001	-4.200003e+001	7.372573e+001
362471	-3.974960e+001	6.782475e+001	-5.192403e-003	-6.278174e-001	-2.389367e-002	-3.858180e-001	-4.417258e+001	5.217247e+001
363567	-4.284925e+001	9.036454e+001	-1.630007e-003	-2.669275e-001	-1.371033e-002	-5.474381e-001	-4.259456e+001	4.749181e+001
364663	-4.143757e+001	8.923988e+001	-1.160279e-003	-5.018999e-001	-9.975687e-003	-4.377847e-001	-4.287752e+001	9.202170e+001
365759	-4.444102e+001	7.690008e+001	-3.943714e-002	-4.789001e-001	-3.949827e-002	-3.974385e-001	-4.094505e+001	5.213753e+001
366855	-4.191330e+001	9.295421e+001	-7.930748e-003	-4.645253e-001	-1.722403e-002	-3.732375e-001	-4.311997e+001	8.002950e+001
367951	-3.984018e+001	6.569592e+001	-3.782828e-002	-5.717441e-001	-2.225537e-002	-4.032073e-001	-4.340494e+001	9.725740e+001
369047	-4.513427e+001	6.779068e+001	-2.586914e-002	-2.416372e-001	-1.835323e-002	-3.714210e-001	-4.455658e+001	9.184546e+001
370143	-4.247737e+001	8.000099e+001	-1.316848e-002	-3.692241e-001	-5.179524e-003	-3.805294e-001	-4.519465e+001	6.125070e+001
371239	-4.364516e+001	1.113700e+002	1.511444e-003	-4.579809e-001	-1.316916e-002	-3.577516e-001	-4.174013e+001	7.550881e+001
372335	-4.416584e+001	6.828495e+001	-2.373934e-003	-3.464203e-001	-5.540603e-002	-3.939150e-001	-4.111933e+001	7.670029e+001
373431	-4.349530e+001	4.512656e+001	-3.261262e-002	-3.688641e-001	-3.147391e-002	-4.973463e-001	-3.880418e+001	5.824892e+001
374527	-3.979604e+001	6.562446e+001	-1.733254e-002	-5.431412e-001	-3.877714e-002	-4.089562e-001	-4.075169e+001	8.250568e+001
375623	-4.120465e+001	7.520811e+001	-2.880218e-002	-4.398958e-001	-1.880216e-002	-4.603878e-001	-4.542373e+001	6.038635e+001
376719	-3.948919e+001	7.214059e+001	-1.978229e-002	-3.377447e-001	-1.521831e-002	-2.783601e-001	-4.276152e+001	8.221457e+001
377815	-4.682640e+001	8.059222e+001	-2.037261e-002	-4.124409e-001	-2.056832e-002	-4.191469e-001	-4.212308e+001	7.029435e+001
378911	-4.226086e+001	5.859536e+001	-6.196035e-003	-3.915200e-001	-3.260916e-002	-4.226240e-001	-4.360065e+001	7.554679e+001
380007	-4.252284e+001	6.741080e+001	3.172089e-003	-4.564583e-001	-1.666156e-002	-4.410764e-001	-4.015072e+001	7.524056e+001
381103	-4.414639e+001	7.086271e+001	-1.952881e-002	-4.267917e-001	3.976258e-003	-5.190871e-001	-4.357087e+001	6.432107e+001
382199	-3.952759e+001	8.330478e+001	-2.158740e-002	-5.242810e-001	-4.248118e-002	-3.470716e-001	-4.595571e+001	7.379836e+001
383295	-4.346346e+001	7.804854e+001	-2.249911e-002	-3.216025e-001	-2.050187e-002	-4.003803e-001	-4.078379e+001	7.354461e+001
384391	-4.206384e+001	5.527746e+001	-5.371132e-002	-4.305531e-001	-3.633360e-002	-4.419439e-001	-4.376682e+001	6.227557e+001
385487	-4.779898e+001	9.353877e+001	-1.736736e-002	-3.529897e-001	-3.238531e-002	-5.808368e-001	-4.091856e+001	7.487565e+001
386583	-4.185694e+001	6.715842e+001	-1.213234e-002	-4.037684e-001	-5.194435e-002	-5.932214e-001	-3.825176e+001	5.767611e+001
387679	-4.174787e+001	6.829960e+001	-1.309961e-002	-2.981572e-001	-2.610904e-002	-4.488248e-001	-4.187471e+001	7.359652e+001
388775	-4.554841e+001	7.003641e+001	-1.536271e-002	-3.359638e-001	-3.025420e-002	-3.395203e-001	-4.136934e+001	5.081564e+001
389871	-4.352524e+001	7.543575e+001	-2.656867e-002	-4.899083e-001	-1.955136e-002	-4.412316e-001	-4.435849e+001	6.646432e+001
390967	-4.303598e+001	6.005463e+001	-2.686164e-002	-3.787200e-001	-3.847727e-002	-6.116931e-001	-3.875648e+001	6.541306e+001
392063	-4.157226e+001	6.049562e+001	-2.133372e-002	-3.195803e-001	-1.177799e-002	-4.432086e-001	-4.744444e+001	5.666983e+001
393159	-3.944847e+001	8.813701e+001	-2.779954e-002	-4.782833e-001	-3.354076e-002	-4.528307e-001	-4.170596e+001	6.922619e+001
394255	-4.565873e+001	7.974427e+001	-2.584383e-002	-5.230800e-001	-7.701502e-003	-2.766417e-001	-4.455926e+001	7.818698e+001
395351	-4.120354e+001	7.684499e+001	-1.658164e-002	-5.056850e-001	-1.666043e-002	-3.073537e-001	-4.481717e+001	5.798110e+001
396447	-4.468827e+001	9.266230e+001	-1.063840e-002	-4.206100e-001	-2.013517e-003	-4.341923e-001	-4.271602e+001	7.406889e+001
397543	-4.262352e+001	8.095390e+001	-4.881735e-003	-3.347385e-001	-1.534958e-002	-4.408902e-001	-4.356638e+001	7.349960e+001
398639	-4.319684e+001	9.579779e+001	1.069223e-002	-3.293839e-001	-3.098813e-002	-4.195897e-001	-4.401245e+001	7.379940e+001
399735	-4.628337e+001	6.560659e+001	-2.026750e-002	-3.138921e-001	-8.252101e-003	-4.729489e-001	-4.641278e+001	3.880995e+001
400831	-4.311975e+001	6.853514e+001	-1.230973e-002	-3.261441e-001	-1.613219e-002	-4.898482e-001	-4.073283e+001	8.137864e+001
401927	-4.330273e+001	6.272534e+001	-3.329622e-002	-2.605584e-001	-4.271568e-002	-4.107225e-001	-4.597626e+001	9.316653e+001
403023	-4.169912e+001	1.051251e+002	2.330316e-003	-3.564200e-001	-1.741798e-002	-3.774404e-001	-4.262672e+001	6.568442e+001
404119	-4.381776e+001	9.435174e+001	1.720964e-002	-3.971804e-001	-1.094477e-002	-4.364821e-001	-4.182426e+001	6.843764e+001
405215	-4.526632e+001	1.030276e+002	-6.269304e-003	-3.800491e-001	-2.417742e-002	-2.050737e-001	-4.550823e+001	6.168562e+001
406311	-4.154964e+001	7.363120e+001	-1.267092e-002	-4.888189e-001	-2.870797e-002	-4.471566e-001	-4.122811e+001	6.202681e+001
407407	-4.132821e+001	7.329389e+001	-5.452854e-003	-4.237749e-001	-3.194941e-002	-4.702538e-001	-4.226674e+001	6.102606e+001
408503	-4.309567e+001	6.464284e+001	3.834121e-003	-4.536623e-001	-3.294276e-002	-3.308854e-001	-4.257164e+001	6.195899e+001
409599	-4.292266e+001	5.743701e+001	-1.674764e-002	-3.973408e-001	-1.200744e-002	-4.441272e-001	-4.350715e+001	4.770499e+001
410695	-4.474645e+001	7.758708e+001	-2.728777e-002	-3.072157e-001	1.195724e-003	-3.576179e-001	-4.479949e+001	6.645477e+001
411791	-4.186103e+001	8.099199e+001	-5.454259e-003	-3.357305e-001	-3.523087e-004	-4.692532e-001	-4.279120e+001	6.359403e+001
412887	-4.295077e+001	7.570589e+001	-8.300901e-003	-4.081408e-001	-6.689138e-003	-2.973900e-001	-4.096372e+001	7.084530e+001
413983	-4.521875e+001	7.783660e+001	-1.785099e-002	-4.538683e-001	-5.526378e-004	-3.852478e-001	-4.154614e+001	7.059000e+001
415079	-4.377614e+001	8.402408e+001	-6.517000e-003	-3.903478e-001	-1.230114e-002	-3.239060e-001	-4.364067e+001	6.675839e+001
416364	-4.248819e+001	8.092991e+001	-2.663416e-002	-4.063435e-001	-2.937176e-002	-3.370099e-001	-4.238401e+001	4.866788e+001
417886	-4.357808e+001	8.182203e+001	7.599016e-003	-3.266395e-001	-5.057683e-002	-3.406736e-001	-4.312553e+001	4.894529e+001
419407	-4.478000e+001	8.738658e+001	-2.677512e-003	-5.597314e-001	1.089978e-003	-5.292826e-001	-4.197674e+001	5.241706e+001
420928	-4.119499e+001	8.109776e+001	5.071224e-003	-3.437360e-001	-1.836354e-002	-4.567902e-001	-4.383736e+001	5.265644e+001
422449	-4.340027e+001	8.520573e+001	-2.063964e-002	-4.913608e-001	-1.537686e-002	-3.257337e-001	-4.136216e+001	8.046344e+001
423970	-4.232987e+001	6.662423e+001	-2.588781e-002	-4.538875e-001	-2.590443e-002	-4.605123e-001	-4.011055e+001	6.264024e+001
425491	-4.467096e+001	5.394722e+001	-2.234894e-002	-4.610607e-001	-3.296263e-002	-4.591482e-001	-4.040085e+001	7.792120e+001
427012	-4.261988e+001	6.921338e+001	-9.533037e-003	-3.441506e-001	-2.921004e-002	-3.501052e-001	-4.129236e+001	6.906008e+001
428533	-4.530205e+001	7.056225e+001	-1.170725e-002	-5.237441e-001	-2.347637e-002	-3.829341e-001	-4.118874e+001	7.218459e+001
430054	-4.257486e+001	8.999784e+001	-1.300956e-002	-4.160339e-001	5.052452e-003	-5.204888e-001	-4.118354e+001	6.510784e+001
431575	-4.471142e+001	7.941102e+001	6.724717e-003	-3.277790e-001	-4.532751e-003	-3.288607e-001	-4.336909e+001	3.329561e+001
433097	-4.212347e+001	9.304256e+001	-8.262322e-003	-4.051426e-001	-1.112953e-002	-4.777438e-001	-4.090800e+001	6.954683e+001
434618	-4.220502e+001	8.680120e+001	-1.382892e-002	-3.438331e-001	-1.183583e-002	-3.895407e-001	-4.217149e+001	6.079667e+001
436139	-4.364487e+001	9.034972e+001	-1.318594e-002	-3.756007e-001	-3.947557e-002	-3.713485e-001	-4.221408e+001	6.615500e+001
437660	-4.743785e+001	5.667265e+001	-2.694804e-002	-3.868635e-001	-1.316758e-002	-3.225121e-001	-4.566463e+001	5.714642e+001
439181	-4.066704e+001	5.186617e+001	-1.537598e-002	-5.259248e-001	-3.210024e-002	-3.835757e-001	-4.240154e+001	7.103761e+001
440702	-4.693058e+001	6.047397e+001	-8.145488e-003	-1.808625e-001	-1.341214e-002	-3.129495e-001	-4.471434e+001	6.797031e+001
442223	-4.637161e+001	7.051997e+001	-2.562814e-002	-3.216589e-001	-2.855210e-002	-5.565126e-001	-4.189387e+001	6.248173e+001
443744	-4.576576e+001	7.804621e+001	-6.520327e-003	-4.578370e-001	-4.275487e-003	-4.992798e-001	-4.723663e+001	7.668341e+001
445265	-4.393739e+001	8.727140e+001	-1.819269e-002	-3.713989e-001	-3.380348e-002	-3.957899e-001	-4.517176e+001	5.273061e+001
446786	-4.356650e+001	6.190947e+001	9.578936e-003	-4.499524e-001	-1.689494e-003	-4.174679e-001	-4.504078e+001	6.338716e+001
448308	-4.235140e+001	9.578682e+001	-1.217796e-002	-3.898182e-001	-9.475655e-004	-3.820356e-001	-4.127379e+001	5.766920e+001
449829	-4.480893e+001	6.376586e+001	-1.669296e-003	-3.819975e-001	-3.542407e-002	-4.075663e-001	-4.067737e+001	6.721878e+001
451350	-4.496716e+001	7.516141e+001	1.405646e-002	-5.080646e-001	-1.738835e-002	-3.960754e-001	-4.516341e+001	5.329971e+001
452871	-4.949460e+001	7.789216e+001	5.611979e-004	-3.603671e-001	-1.342999e-002	-3.209930e-001	-5.148411e+001	5.802842e+001
454392	-4.250829e+001	6.163526e+001	-2.619854e-002	-2.860480e-001	-1.367612e-002	-3.665299e-001	-4.510684e+001	3.576985e+001
455913	-4.446266e+001	7.670662e+001	4.248630e-003	-4.526236e-001	-3.153570e-002	-4.222121e-001	-3.952037e+001	4.516927e+001
457434	-4.362281e+001	8.297653e+001	-1.563929e-003	-2.575280e-001	-1.898941e-002	-2.756830e-001	-4.237916e+001	6.205984e+001
458955	-4.538845e+001	6.589708e+001	-2.296667e-002	-3.174056e-001	-2.249514e-002	-3.379458e-001	-4.291530e+001	8.509216e+001
460476	-4.477695e+001	8.466738e+001	-2.820901e-003	-3.908415e-001	-1.210835e-002	-4.394455e-001	-4.973385e+001	7.512983e+001
461997	-4.790213e+001	8.549354e+001	1.905877e-003	-2.364697e-001	-8.777571e-003	-3.281598e-001	-4.606031e+001	7.544994e+001
463519	-4.553760e+001	3.341231e+001	9.911474e-004	-4.825186e-001	-5.328342e-002	-4.338599e-001	-4.253361e+001	5.230410e+001
465040	-4.375820e+001	1.027547e+002	3.678993e-003	-2.295853e-001	5.138499e-003	-3.690688e-001	-4.177805e+001	5.545975e+001
466561	-4.752224e+001	7.193223e+001	-1.568770e-003	-4.363005e-001	-7.596411e-003	-4.645078e-001	-4.113856e+001	7.001084e+001
468082	-4.793831e+001	9.590561e+001	-1.431741e-004	-3.417510e-001	-6.129867e-003	-3.032252e-001	-4.435321e+001	7.067437e+001
469603	-4.548218e+001	8.080431e+001	-1.805847e-002	-5.329651e-001	-3.661660e-002	-2.917338e-001	-4.545705e+001	4.834441e+001
471124	-4.841498e+001	9.518315e+001	7.276324e-003	-3.092090e-001	-1.209431e-002	-5.495367e-001	-4.525677e+001	7.291776e+001
472645	-4.772087e+001	9.675053e+001	-1.394127e-002	-3.494974e-001	-4.161485e-003	-3.456755e-001	-4.465199e+001	7.584771e+001
474166	-4.685660e+001	8.801989e+001	-5.458346e-003	-4.030030e-001	-2.592612e-002	-4.322023e-001	-4.437621e+001	6.206408e+001
475687	-5.218247e+001	3.195246e+001	-3.051602e-004	-4.505655e-001	-2.482964e-002	-3.572958e-001	-4.591854e+001	5.613905e+001
477209	-4.647541e+001	1.010457e+002	-5.846697e-003	-3.280635e-001	-1.166169e-002	-2.844119e-001	-4.381832e+001	9.749241e+001
478730	-4.548214e+001	9.263804e+001	-4.678008e-003	-3.656938e-001	-3.043000e-002	-3.826021e-001	-4.658699e+001	7.939753e+001
480251	-4.509041e+001	8.340710e+001	-5.323820e-004	-4.290204e-001	-3.384689e-002	-4.103221e-001	-4.629888e+001	7.559159e+001
481772	-4.421618e+001	7.476942e+001	-1.087331e-002	-3.053053e-001	-1.014477e-002	-4.384130e-001	-4.442718e+001	6.880722e+001
483293	-4.588027e+001	7.185947e+001	-8.063156e-003	-3.206883e-001	-1.803505e-002	-3.283298e-001	-4.815879e+001	8.537825e+001
484814	-4.832579e+001	5.686696e+001	-1.035417e-002	-3.508458e-001	-3.462109e-002	-3.717564e-001	-4.230094e+001	8.067861e+001
486335	-4.426506e+001	8.285608e+001	-1.193922e-002	-4.020104e-001	-4.534217e-003	-2.893531e-001	-4.432715e+001	6.732183e+001
487856	-4.418770e+001	5.057110e+001	-1.442387e-002	-3.292040e-001	-1.904707e-002	-4.483600e-001	-4.650518e+001	7.949936e+001
489377	-4.538258e+001	5.523274e+001	-2.710141e-002	-4.348839e-001	-3.631644e-002	-2.920980e-001	-4.411978e+001	6.127046e+001
490898	-4.993645e+001	7.194456e+001	-1.358287e-002	-4.493651e-001	2.538357e-003	-4.054952e-001	-4.298986e+001	7.292440e+001
492420	-4.296734e+001	8.978047e+001	-7.095333e-003	-3.946469e-001	-1.681635e-002	-3.739996e-001	-4.254897e+001	6.842367e+001
