! Touchstone file from project 
! Exported from ElectronicsDesktop 2016.2.0
!
!Created with skrf (http://scikit-rf.org).
# GHz S RI R 50.0 
!freq ReS11 ImS11 ReS21 ImS21 ReS12 ImS12 ReS22 ImS22
0.0003 1.1843460555443535e-10 1.1309671743682388e-05 0.9999999998720899 -1.1309733551958837e-05 0.99999999987209 -1.1309733551958838e-05 1.1843460555443535e-10 1.1309671743682388e-05
0.000301096 1.3867890619976531e-10 1.1351022903380081e-05 0.9999999998711537 -1.1351045495342935e-05 0.9999999998711536 -1.1351045495342935e-05 1.3867890619976531e-10 1.1351022903380081e-05
0.000302192 1.3918435063881346e-10 1.1392394093572172e-05 0.9999999998702137 -1.139237489201947e-05 0.9999999998702139 -1.1392374892019472e-05 1.3918435063881346e-10 1.1392394093572172e-05
0.000303288 1.3968842079463447e-10 1.143365279715174e-05 0.9999999998692707 -1.1433686835403414e-05 0.9999999998692709 -1.1433686835403416e-05 1.3968842079463447e-10 1.143365279715174e-05
0.000304384 1.4019431649133576e-10 1.1475060923285254e-05 0.9999999998683242 -1.147499877878728e-05 0.9999999998683246 -1.1474998778787283e-05 1.4019431649133576e-10 1.1475060923285254e-05
0.00030548 1.406988045932981e-10 1.1516353836221908e-05 0.9999999998673742 -1.1516328175463585e-05 0.9999999998673742 -1.1516328175463585e-05 1.406988045932981e-10 1.1516353836221908e-05
0.000306576 1.412034824170455e-10 1.155766227809794e-05 0.9999999998664207 -1.1557640118847288e-05 0.999999999866421 -1.1557640118847291e-05 1.412034824170455e-10 1.155766227809794e-05
0.000307672 1.41708339001687e-10 1.1598985351752221e-05 0.9999999998654641 -1.1598952062230918e-05 0.9999999998654643 -1.1598952062230922e-05 1.41708339001687e-10 1.1598985351752221e-05
0.000308768 1.4221336334089475e-10 1.1640322156304558e-05 0.9999999998645039 -1.1640281458906986e-05 0.999999999864504 -1.1640281458906988e-05 1.4221336334089475e-10 1.1640322156304558e-05
0.000309864 1.4271690128474233e-10 1.1681537297741435e-05 0.9999999998635402 -1.1681593402290457e-05 0.9999999998635404 -1.1681593402290459e-05 1.4271690128474233e-10 1.1681537297741435e-05
0.00031096 1.432222221163227e-10 1.172289837052464e-05 0.9999999998625734 -1.1722905345673847e-05 0.9999999998625734 -1.1722905345673847e-05 1.432222221163227e-10 1.172289837052464e-05
0.000312056 1.4372767741278187e-10 1.1764270449407912e-05 0.9999999998616029 -1.1764234742349676e-05 0.9999999998616027 -1.1764234742349673e-05 1.4372767741278187e-10 1.1764270449407912e-05
0.000313152 1.4423159545249382e-10 1.180551670211456e-05 0.9999999998606289 -1.1805546685732903e-05 0.9999999998606292 -1.1805546685732905e-05 1.4423159545249382e-10 1.180551670211456e-05
0.000314248 1.4473728025971612e-10 1.1846907566709375e-05 0.9999999998596518 -1.1846858629116051e-05 0.9999999998596519 -1.1846858629116053e-05 1.4473728025971612e-10 1.1846907566709375e-05
0.000315344 1.4524139368366077e-10 1.1888169811833046e-05 0.999999999858671 -1.1888188025791641e-05 0.999999999858671 -1.1888188025791641e-05 1.4524139368366077e-10 1.1888169811833046e-05
0.00031644 1.4574558494422537e-10 1.1929438427970736e-05 0.999999999857687 -1.1929499969174626e-05 0.9999999998576871 -1.1929499969174628e-05 1.4574558494422537e-10 1.1929438427970736e-05
0.000317536 1.4625152645532656e-10 1.19708503040639e-05 0.9999999998566995 -1.1970811912557531e-05 0.9999999998566996 -1.1970811912557531e-05 1.4625152645532656e-10 1.19708503040639e-05
0.000318632 1.4675584507567128e-10 1.201212934474142e-05 0.9999999998557085 -1.2012141309232873e-05 0.9999999998557086 -1.2012141309232874e-05 1.4675584507567128e-10 1.201212934474142e-05
0.000319728 1.4726020733057677e-10 1.2053411956956327e-05 0.9999999998547142 -1.2053453252615615e-05 0.9999999998547142 -1.2053453252615615e-05 1.4726020733057677e-10 1.2053411956956327e-05
0.000320824 1.4776630294938336e-10 1.209483644693679e-05 0.9999999998537167 -1.2094765195998276e-05 0.9999999998537163 -1.2094765195998273e-05 1.4776630294938336e-10 1.209483644693679e-05
0.00032192 1.4827072379032988e-10 1.2136123854484401e-05 0.9999999998527151 -1.2136094592673369e-05 0.9999999998527151 -1.2136094592673369e-05 1.4827072379032988e-10 1.2136123854484401e-05
0.000323016 1.4877515369490594e-10 1.217741200390018e-05 0.9999999998517107 -1.2177406536055864e-05 0.9999999998517108 -1.2177406536055866e-05 1.4877515369490594e-10 1.217741200390018e-05
0.000324112 1.4927958105932812e-10 1.2218699945401534e-05 0.999999999850703 -1.2218718479438278e-05 0.9999999998507028 -1.2218718479438275e-05 1.4927958105932812e-10 1.2218699945401534e-05
0.000325208 1.4978399424049195e-10 1.2259986725987399e-05 0.9999999998496912 -1.226004787611312e-05 0.9999999998496912 -1.226004787611312e-05 1.4978399424049195e-10 1.2259986725987399e-05
0.000326304 1.5029011182526863e-10 1.2301413013906978e-05 0.9999999998486764 -1.230135981949536e-05 0.9999999998486766 -1.2301359819495364e-05 1.5029011182526863e-10 1.2301413013906978e-05
0.0003274 1.50794467361908e-10 1.234269507622432e-05 0.9999999998476583 -1.2342671762877524e-05 0.9999999998476584 -1.2342671762877524e-05 1.50794467361908e-10 1.234269507622432e-05
0.000328496 1.5129877355352853e-10 1.2383973099596926e-05 0.9999999998466366 -1.2384001159552116e-05 0.9999999998466365 -1.2384001159552115e-05 1.5129877355352853e-10 1.2383973099596926e-05
0.000329592 1.5180301860367484e-10 1.2425246118471778e-05 0.9999999998456115 -1.2425313102934107e-05 0.9999999998456117 -1.242531310293411e-05 1.5180301860367484e-10 1.2425246118471778e-05
0.000330688 1.5230894419005172e-10 1.2466656691108524e-05 0.9999999998445828 -1.246664249960853e-05 0.999999999844583 -1.2466642499608532e-05 1.5230894419005172e-10 1.2466656691108524e-05
0.000331784 1.5281303722278572e-10 1.2507917267188894e-05 0.9999999998435511 -1.2507954442990353e-05 0.9999999998435513 -1.2507954442990354e-05 1.5281303722278572e-10 1.2507917267188894e-05
0.00033288 1.5331879863938878e-10 1.2549314402346839e-05 0.9999999998425158 -1.2549266386372086e-05 0.999999999842516 -1.2549266386372089e-05 1.5331879863938878e-10 1.2549314402346839e-05
0.000333976 1.5382269202251523e-10 1.2590558636884503e-05 0.9999999998414767 -1.2590595783046251e-05 0.9999999998414771 -1.2590595783046256e-05 1.5382269202251523e-10 1.2590558636884503e-05
0.000335072 1.543282414878952e-10 1.263193842359881e-05 0.9999999998404351 -1.2631907726427822e-05 0.999999999840435 -1.263190772642782e-05 1.543282414878952e-10 1.263193842359881e-05
0.000336168 1.5483188730136163e-10 1.2673162394284112e-05 0.9999999998393895 -1.2673219669809297e-05 0.9999999998393896 -1.2673219669809299e-05 1.5483188730136163e-10 1.2673162394284112e-05
0.000337264 1.5533717674857274e-10 1.2714520898221745e-05 0.9999999998383402 -1.2714549066483205e-05 0.9999999998383405 -1.2714549066483208e-05 1.5533717674857274e-10 1.2714520898221745e-05
0.00033836 1.558423209821258e-10 1.2755867516259758e-05 0.999999999837288 -1.2755861009864511e-05 0.9999999998372879 -1.275586100986451e-05 1.558423209821258e-10 1.2755867516259758e-05
0.000339456 1.5634730787957685e-10 1.2797201256162614e-05 0.9999999998362322 -1.2797172953245726e-05 0.9999999998362323 -1.2797172953245727e-05 1.5634730787957685e-10 1.2797201256162614e-05
0.000340552 1.5685212528457317e-10 1.2838521122919307e-05 0.9999999998351727 -1.283850234991937e-05 0.9999999998351733 -1.2838502349919376e-05 1.5685212528457317e-10 1.2838521122919307e-05
0.000341648 1.5735676100730576e-10 1.2879826118780392e-05 0.9999999998341105 -1.2879814293300418e-05 0.9999999998341105 -1.2879814293300418e-05 1.5735676100730576e-10 1.2879826118780392e-05
0.000342744 1.5786120282496115e-10 1.2921115243294981e-05 0.9999999998330444 -1.2921126236681372e-05 0.9999999998330444 -1.2921126236681372e-05 1.5786120282496115e-10 1.2921115243294981e-05
0.00034384 1.5836543848218155e-10 1.2962387493348388e-05 0.9999999998319746 -1.2962455633354751e-05 0.9999999998319751 -1.2962455633354756e-05 1.5836543848218155e-10 1.2962387493348388e-05
0.000344936 1.5887128475425514e-10 1.3003791574021087e-05 0.999999999830902 -1.3003767576735532e-05 0.9999999998309018 -1.3003767576735529e-05 1.5887128475425514e-10 1.3003791574021087e-05
0.000346032 1.593750769967461e-10 1.3045027530085107e-05 0.9999999998298258 -1.3045079520116218e-05 0.9999999998298259 -1.304507952011622e-05 1.593750769967461e-10 1.3045027530085107e-05
0.000347128 1.5988046680058388e-10 1.3086394248324389e-05 0.9999999998287459 -1.3086408916789337e-05 0.999999999828746 -1.3086408916789337e-05 1.5988046680058388e-10 1.3086394248324389e-05
0.000348224 1.8329784310006642e-10 1.31277410035215e-05 0.9999999998276629 -1.3127720860169847e-05 0.9999999998276631 -1.3127720860169848e-05 1.8329784310006642e-10 1.31277410035215e-05
0.00034932 1.8387485978774803e-10 1.3169066779659841e-05 0.9999999998265764 -1.3169032803550268e-05 0.9999999998265765 -1.3169032803550268e-05 1.8387485978774803e-10 1.3169066779659841e-05
0.000350416 1.8445156931907317e-10 1.3210370557344587e-05 0.9999999998254864 -1.3210362200223116e-05 0.9999999998254864 -1.3210362200223116e-05 1.8445156931907317e-10 1.3210370557344587e-05
0.000351512 1.8502795743069346e-10 1.325165131503866e-05 0.9999999998243932 -1.3251674143603358e-05 0.9999999998243931 -1.3251674143603356e-05 1.8502795743069346e-10 1.325165131503866e-05
0.000352608 1.8560614668315725e-10 1.3293061069943525e-05 0.9999999998232965 -1.3292986086983507e-05 0.9999999998232965 -1.3292986086983507e-05 1.8560614668315725e-10 1.3293061069943525e-05
0.000353704 1.8618185565979468e-10 1.3334293188177305e-05 0.9999999998221961 -1.3334315483656082e-05 0.9999999998221961 -1.3334315483656082e-05 1.8618185565979468e-10 1.3334293188177305e-05
0.0003548 1.8675935035760443e-10 1.3375653199269278e-05 0.9999999998210927 -1.3375627427036051e-05 0.9999999998210927 -1.3375627427036051e-05 1.8675935035760443e-10 1.3375653199269278e-05
0.000355896 1.8733647951215468e-10 1.3416987030253752e-05 0.9999999998199857 -1.3416939370415926e-05 0.9999999998199858 -1.3416939370415928e-05 1.8733647951215468e-10 1.3416987030253752e-05
0.000356992 1.879132286844873e-10 1.3458293647016529e-05 0.9999999998188749 -1.3458268767088228e-05 0.9999999998188752 -1.3458268767088231e-05 1.879132286844873e-10 1.3458293647016529e-05
0.000358087 1.8848958340425147e-10 1.349957201319507e-05 0.9999999998177613 -1.3499580710467923e-05 0.9999999998177613 -1.3499580710467923e-05 1.8848958340425147e-10 1.349957201319507e-05
0.000359183 1.8906552917027678e-10 1.3540821090219546e-05 0.999999999816644 -1.3540892653847525e-05 0.9999999998166442 -1.3540892653847528e-05 1.8906552917027678e-10 1.3540821090219546e-05
0.000360279 1.896432347870019e-10 1.3582196207266104e-05 0.9999999998155232 -1.3582222050519549e-05 0.9999999998155235 -1.358222205051955e-05 1.896432347870019e-10 1.3582196207266104e-05
0.000361375 1.902205156245744e-10 1.3623540901746827e-05 0.9999999998143994 -1.3623533993898968e-05 0.9999999998143992 -1.3623533993898966e-05 1.902205156245744e-10 1.3623540901746827e-05
0.000362471 1.9079735707741417e-10 1.3664854127614093e-05 0.9999999998132719 -1.3664845937278289e-05 0.9999999998132719 -1.3664845937278289e-05 1.9079735707741417e-10 1.3664854127614093e-05
0.000363567 1.9137374451076433e-10 1.3706134836730647e-05 0.9999999998121408 -1.3706175333950037e-05 0.9999999998121406 -1.3706175333950033e-05 1.9137374451076433e-10 1.3706134836730647e-05
0.000364663 1.9195187317616515e-10 1.3747540252406761e-05 0.9999999998110065 -1.3747487277329173e-05 0.9999999998110065 -1.3747487277329173e-05 1.9195187317616515e-10 1.3747540252406761e-05
0.000365759 1.9252731517747696e-10 1.37887532499413e-05 0.9999999998098686 -1.378879922070821e-05 0.9999999998098691 -1.3788799220708217e-05 1.9252731517747696e-10 1.37887532499413e-05
0.000366855 1.9310448226482965e-10 1.3830089797662632e-05 0.9999999998087274 -1.3830128617379677e-05 0.9999999998087278 -1.3830128617379682e-05 1.9310448226482965e-10 1.3830089797662632e-05
0.000367951 1.9368114976028637e-10 1.3871390564750068e-05 0.9999999998075828 -1.3871440560758529e-05 0.9999999998075833 -1.3871440560758534e-05 1.9368114976028637e-10 1.3871390564750068e-05
0.000369047 1.9425953935663068e-10 1.3912814668228439e-05 0.9999999998064351 -1.3912752504137292e-05 0.9999999998064353 -1.3912752504137294e-05 1.9425953935663068e-10 1.3912814668228439e-05
0.000370143 1.9483516989934077e-10 1.395404116904596e-05 0.9999999998052838 -1.3954081900808476e-05 0.9999999998052835 -1.3954081900808473e-05 1.9483516989934077e-10 1.395404116904596e-05
0.000371239 1.954125061524772e-10 1.3995389832374097e-05 0.9999999998041287 -1.3995393844187038e-05 0.9999999998041291 -1.3995393844187044e-05 1.954125061524772e-10 1.3995389832374097e-05
0.000372335 1.9598929674725234e-10 1.4036699415800792e-05 0.9999999998029707 -1.4036705787565513e-05 0.9999999998029708 -1.4036705787565514e-05 1.9598929674725234e-10 1.4036699415800792e-05
0.000373431 1.9656552677245232e-10 1.4077968851389011e-05 0.9999999998018089 -1.4078035184236405e-05 0.999999999801809 -1.4078035184236407e-05 1.9656552677245232e-10 1.4077968851389011e-05
0.000374527 1.9714345097711782e-10 1.4119359623643615e-05 0.9999999998006441 -1.4119347127614691e-05 0.9999999998006441 -1.4119347127614691e-05 1.9714345097711782e-10 1.4119359623643615e-05
0.000375623 1.9772079798440783e-10 1.4160709057181268e-05 0.9999999997994756 -1.4160659070992875e-05 0.9999999997994757 -1.4160659070992877e-05 1.9772079798440783e-10 1.4160709057181268e-05
0.000376719 1.982975527906683e-10 1.4202016077444405e-05 0.9999999997983035 -1.4201988467663478e-05 0.9999999997983037 -1.4201988467663481e-05 1.982975527906683e-10 1.4202016077444405e-05
0.000377815 1.9887370036887574e-10 1.4243279608201744e-05 0.9999999997971284 -1.4243300411041469e-05 0.9999999997971284 -1.4243300411041469e-05 1.9887370036887574e-10 1.4243279608201744e-05
0.000378911 1.9945152192655133e-10 1.4284663028907221e-05 0.9999999997959497 -1.4284612354419364e-05 0.9999999997959499 -1.4284612354419368e-05 1.9945152192655133e-10 1.4284663028907221e-05
0.000380007 2.000287193983978e-10 1.4326001752757622e-05 0.9999999997947675 -1.4325941751089676e-05 0.9999999997947676 -1.4325941751089678e-05 2.000287193983978e-10 1.4326001752757622e-05
0.000381103 2.0060527766874086e-10 1.4367294697172521e-05 0.9999999997935821 -1.4367253694467379e-05 0.9999999997935819 -1.4367253694467375e-05 2.0060527766874086e-10 1.4367294697172521e-05
0.000382199 2.0118118160035983e-10 1.4408540778028346e-05 0.9999999997923931 -1.4408565637844973e-05 0.9999999997923932 -1.4408565637844975e-05 2.0118118160035983e-10 1.4408540778028346e-05
0.000383295 2.0175873885507334e-10 1.4449905269428525e-05 0.9999999997912005 -1.4449895034514992e-05 0.9999999997912006 -1.4449895034514992e-05 2.0175873885507334e-10 1.4449905269428525e-05
0.000384391 2.0233562469091776e-10 1.4491221673994349e-05 0.9999999997900048 -1.4491206977892396e-05 0.999999999790005 -1.44912069778924e-05 2.0233562469091776e-10 1.4491221673994349e-05
0.000385487 2.029118238859134e-10 1.4532488901531834e-05 0.9999999997888057 -1.4532518921269703e-05 0.9999999997888058 -1.4532518921269704e-05 2.029118238859134e-10 1.4532488901531834e-05
0.000386583 2.034896639462431e-10 1.4573873647392297e-05 0.9999999997876029 -1.4573848317939421e-05 0.9999999997876032 -1.4573848317939426e-05 2.034896639462431e-10 1.4573873647392297e-05
0.000387679 2.0406680012527944e-10 1.461520798146853e-05 0.9999999997863971 -1.4615160261316528e-05 0.999999999786397 -1.4615160261316526e-05 2.0406680012527944e-10 1.461520798146853e-05
0.000388775 2.0464321711885913e-10 1.4656490807680576e-05 0.9999999997851877 -1.4656472204693534e-05 0.9999999997851876 -1.4656472204693533e-05 2.0464321711885913e-10 1.4656490807680576e-05
0.000389871 2.0521889960437487e-10 1.4697721028627519e-05 0.9999999997839746 -1.4697801601362955e-05 0.9999999997839746 -1.4697801601362955e-05 2.0521889960437487e-10 1.4697721028627519e-05
0.000390967 2.0579620154412316e-10 1.4739067234440257e-05 0.9999999997827586 -1.4739113544739765e-05 0.9999999997827584 -1.4739113544739763e-05 2.0579620154412316e-10 1.4739067234440257e-05
0.000392063 2.0637275152601209e-10 1.4780359585238356e-05 0.9999999997815386 -1.4780442941408984e-05 0.9999999997815388 -1.4780442941408985e-05 2.0637275152601209e-10 1.4780359585238356e-05
0.000393159 2.0695091674607982e-10 1.482176761894964e-05 0.9999999997803157 -1.4821754884785587e-05 0.9999999997803155 -1.4821754884785584e-05 2.0695091674607982e-10 1.482176761894964e-05
0.000394255 2.334693515132651e-10 1.4863120540297538e-05 0.9999999997790892 -1.4863066828162089e-05 0.9999999997790892 -1.4863066828162089e-05 2.334693515132651e-10 1.4863120540297538e-05
0.000395351 2.341180385989783e-10 1.4904417242778598e-05 0.9999999997778591 -1.4904396224831006e-05 0.9999999997778592 -1.4904396224831008e-05 2.341180385989783e-10 1.4904417242778598e-05
0.000396447 2.347658251838936e-10 1.4945656617598367e-05 0.9999999997766258 -1.4945708168207306e-05 0.9999999997766259 -1.4945708168207308e-05 2.347658251838936e-10 1.4945656617598367e-05
0.000397543 2.354154041444076e-10 1.4987010098592688e-05 0.9999999997753892 -1.4987020111583503e-05 0.999999999775389 -1.4987020111583501e-05 2.354154041444076e-10 1.4987010098592688e-05
0.000398639 2.360640626362826e-10 1.5028304980733477e-05 0.9999999997741487 -1.5028349508252112e-05 0.9999999997741488 -1.5028349508252114e-05 2.360640626362826e-10 1.5028304980733477e-05
0.000399735 2.3671450842767874e-10 1.506971364589568e-05 0.9999999997729052 -1.5069661451628105e-05 0.9999999997729052 -1.5069661451628105e-05 2.3671450842767874e-10 1.506971364589568e-05
0.000400831 2.373640136733533e-10 1.5111062434057571e-05 0.9999999997716584 -1.5110973395003997e-05 0.9999999997716583 -1.5110973395003995e-05 2.373640136733533e-10 1.5111062434057571e-05
0.000401927 2.380125608167639e-10 1.515235022753495e-05 0.9999999997704077 -1.5152302791672296e-05 0.9999999997704079 -1.51523027916723e-05 2.380125608167639e-10 1.515235022753495e-05
0.000403023 2.386601322864321e-10 1.5193575907692756e-05 0.9999999997691542 -1.5193614735047985e-05 0.9999999997691542 -1.5193614735047985e-05 2.386601322864321e-10 1.5193575907692756e-05
0.000404119 2.393094656328979e-10 1.5234913752411137e-05 0.9999999997678971 -1.5234926678423563e-05 0.9999999997678971 -1.5234926678423563e-05 2.393094656328979e-10 1.5234913752411137e-05
0.000405215 2.39957803017574e-10 1.5276188192232737e-05 0.9999999997666357 -1.5276256075091542e-05 0.9999999997666357 -1.5276256075091542e-05 2.39957803017574e-10 1.5276188192232737e-05
0.000406311 2.4060789687838137e-10 1.5317574452797812e-05 0.9999999997653717 -1.5317568018466917e-05 0.9999999997653728 -1.5317568018466934e-05 2.4060789687838137e-10 1.5317574452797812e-05
0.000407407 2.4125697438441304e-10 1.5358896010208297e-05 0.9999999997641047 -1.535887996184219e-05 0.9999999997641047 -1.535887996184219e-05 2.4125697438441304e-10 1.5358896010208297e-05
0.000408503 2.4190501782825895e-10 1.540015173717546e-05 0.9999999997628336 -1.5400209358509863e-05 0.9999999997628336 -1.5400209358509863e-05 2.4190501782825895e-10 1.540015173717546e-05
0.000409599 2.425548019898854e-10 1.544151828167833e-05 0.99999999976156 -1.544152130188493e-05 0.99999999976156 -1.544152130188493e-05 2.425548019898854e-10 1.544151828167833e-05
0.000410695 2.4320353154480824e-10 1.5482817687833247e-05 0.9999999997602822 -1.5482833245259878e-05 0.9999999997602822 -1.5482833245259878e-05 2.4320353154480824e-10 1.5482817687833247e-05
0.000411791 2.4385399617168997e-10 1.5524227552099707e-05 0.9999999997590001 -1.552416264192723e-05 0.9999999997590001 -1.552416264192723e-05 2.4385399617168997e-10 1.5524227552099707e-05
0.000412887 2.445005706125919e-10 1.5565389759434895e-05 0.9999999997577156 -1.5565474585301963e-05 0.9999999997577156 -1.5565474585301963e-05 2.445005706125919e-10 1.5565389759434895e-05
0.000413983 2.451516818306724e-10 1.560684078697553e-05 0.9999999997564281 -1.5606786528676603e-05 0.9999999997564281 -1.5606786528676603e-05 2.451516818306724e-10 1.560684078697553e-05
