!Agilent Technologies,E5071C,MY46522545,B.13.01
!Date: Tue Sep 24 16:45:52 2019
!Data & Calibration Information:
!Freq	S11:SOLT2(ON)	S21:SOLT2(ON)	S12:SOLT2(ON)	S22:SOLT2(ON)
!PortZ  Port1:50+j0    Port2:50+j0
!Above PortZ is port z conversion or system Z0 setting when saving the data.
!When reading, reference impedance value at option line is always used.
!
!Created with skrf (http://scikit-rf.org).
# GHz S RI R 50.0 
!freq ReS11 ImS11 ReS21 ImS21 ReS12 ImS12 ReS22 ImS22
0.0003 -0.001182270472944654 0.006924425867595937 0.995048007118721 -0.008843099527879927 0.9979904191213079 -0.0046617484206389614 0.004082988436479636 0.009828344848422713
0.000301096 -0.0017244899574600512 0.00974049789471814 0.9966015788339954 -0.006543378391733662 0.9965698572968436 -0.007551635769365311 0.0009546627567544219 0.009230486061819263
0.000302192 0.0030887662113731084 0.00902604560839631 0.9973951513892559 -0.006700969678578447 0.9955367671594166 -0.007675362456044189 0.0004410487518299721 0.009774461216848019
0.000303288 0.0021907657509697537 0.009045005978778322 0.9946844534668685 -0.0048894558762062655 0.9984099002219778 -0.0064152816860112245 -0.0016048916619026204 0.007708997991966769
0.000304384 -0.0012120741934766445 0.00910610086773496 0.9962481584839031 -0.008972260644391982 1.0015556608532212 -0.00847711995188379 0.001363172044051373 0.008734824769328442
0.00030548 0.0024362523077076535 0.005942959160309718 0.9983727825783074 -0.007799766960528843 0.9937715845904259 -0.006674947555576245 0.002952202417113066 0.008347182995462277
0.000306576 0.0003450766918079544 0.0074717498362809245 1.0028235918174166 -0.0029859338600475706 0.9987374511576176 -0.00816097142164633 -0.0013557380451009282 0.011313696569940565
0.000307672 -8.812780877490464e-05 0.009878152289353894 1.0004877347151853 -0.009822460446929629 1.0003455074391898 -0.01081343542748457 -0.0011892445768254029 0.012513637477630605
0.000308768 0.0025505975292939354 0.007657609873624678 0.9977156350276777 -0.008725750820534008 0.998353557554133 -0.008940352105286773 -0.0004626057580606022 0.007552807149756994
0.000309864 -0.002165867577594433 0.00686929615668969 1.0001519187823125 -0.0069422758339645774 0.994889043409086 -0.009315609636323923 0.00492164900321589 0.007165969986935787
0.00031096 0.00446350553504259 0.005098696711348704 0.9961966015458357 -0.004385212366669539 0.9979811863278844 -0.008047043527694713 0.004893883670371624 0.009945167840192334
0.000312056 0.0031878681422708574 0.010989328267538758 0.9983259003890803 -0.008172942732575402 0.9991236668865197 -0.007893763333254008 0.0017778938108636412 0.009568552578904134
0.000313152 0.003698563505219687 0.013110368200184025 0.9972170053377 -0.007139198757772431 0.9983995619432418 -0.009466641655503693 -0.0008410225274352714 0.008947389828100814
0.000314248 0.0015127391747613791 0.009550109926191753 0.997933188069439 -0.0048890492424859345 0.9963344718525894 -0.010416893419117694 0.00048556591361559 0.006436454111725713
0.000315344 0.000941445667153799 0.011568234137719109 0.9979400749179962 -0.008249618412564231 0.9982860306639204 -0.009096103610295734 0.0013781400570159806 0.006993627397444102
0.00031644 0.0027814013887032126 0.009569444487350904 0.9971061065511724 -0.010462468142563583 0.9976976869177704 -0.00822280801190158 0.001738079695258177 0.007292866173880336
0.000317536 0.004157368523581012 0.013403897930358758 0.9955476239685104 -0.01039668845579896 0.9993994329215856 -0.006537649960298816 -0.00012688232275958561 0.008344730254014698
0.000318632 -0.000980659331972102 0.008936536560250364 0.9999339536747236 -0.010795791297016008 0.9950516576517375 -0.006438402422220539 0.000397341738799071 0.010155266487017051
0.000319728 -0.0019276395218473744 0.010952642056798568 0.9987521657058245 -0.007604540212988996 0.9951086508234933 -0.011445333298796989 0.002457160871714429 0.010455349168460604
0.000320824 9.88537657226784e-05 0.0077975578048998136 0.9972438849893892 -0.00938771040770333 0.9984165105176224 -0.006564447022337538 0.0011658402032556658 0.007229234250512719
0.00032192 -0.0012330511633848163 0.0068838894193381074 0.997551236409681 -0.009994587576803366 0.9987954388133005 -0.008349874807817107 0.0012128815019490022 0.007909974155984753
0.000323016 0.0024517295085974746 0.009483432510266607 0.9981077904578173 -0.0067331695557986465 0.9962837109907269 -0.004407467412986941 0.002748046977083054 0.004126920275214948
0.000324112 -0.00032555826931828245 0.0076023200319215055 0.9970363355534091 -0.0059036445047812944 0.9976304365224575 -0.007006695595766819 0.0014899623219183098 0.00650646163465384
0.000325208 0.0009115643119732645 0.008485400234400971 0.9947206887177243 -0.008287452178453523 0.999327508713009 -0.0063477440890308354 -0.0004771405340827173 0.004542487824151492
0.000326304 -0.00016695067373972318 0.010781617970072712 0.9991090713411885 -0.009323588298225903 0.9986690081142375 -0.013658816602579645 0.0007147350512282541 0.01308022181768698
0.0003274 0.003729394289837248 0.007448857022885307 0.9976968923862956 -0.008405000370310502 0.9969000531979757 -0.008515947514415716 -4.4753982207979267e-05 0.008180013118330165
0.000328496 -0.0003422364177688437 0.008433215053301005 1.0007496624775958 -0.006798313526839646 0.9982928634701279 -0.005385078549651895 0.004244547568115817 0.005415204735710521
0.000329592 0.0007404460562938094 0.008795203454754697 0.9960167568776552 -0.007689026300378468 0.9982447617048743 -0.0068920373052834384 -0.0005348957304591002 0.007254528229072662
0.000330688 -0.0014899649450342885 0.005629423707856579 0.9992194289767665 -0.00610118182661564 0.9982688823557512 -0.005056304342658904 -0.0011349434081098105 0.0022711106352849937
0.000331784 0.0008389092204707526 0.008181212898166276 0.9973617352442807 -0.009423489423440049 0.9944004182401153 -0.005089717285377118 0.0016856454587255297 0.003610001452463403
0.00033288 -0.0018043719353905863 0.008516233379016679 0.9983908511816123 -0.008798396281708889 0.9969416167099914 -0.009560806149358295 0.0018572976855281678 0.005068193394494728
0.000333976 0.0034877109802456652 0.007215187659372677 0.9961373266602515 -0.007541132228425514 0.996987231808422 -0.007878618987558258 0.003107229256839188 0.007869799735728645
0.000335072 -0.0002722992251466662 0.00894131098422367 0.9978934108410971 -0.008877245684510508 0.9992808420024668 -0.0088223436832701 -0.0008035080981311067 0.008533323002845502
0.000336168 -0.000837921712520676 0.008697710353398749 0.9990339325461426 -0.010160224102045047 0.9963855034128889 -0.006906438543136367 0.0005138977024202136 0.007344308590664675
0.000337264 -0.0006898380839056398 0.009745005262958512 0.9984039905737856 -0.005392395702817013 0.9958092088898308 -0.007524206261953768 0.0015152470682311967 0.007773400297774163
0.00033836 -0.004372264936053188 0.006515824678838722 0.9996685254093459 -0.007126631811188052 0.9955295216948303 -0.006858224053940996 0.003579557815532513 0.008645973878510285
0.000339456 -0.0009614552175862877 0.009364290811107229 0.9993307650385135 -0.00909353838745244 0.9959737438586042 -0.007917011647394183 0.0039025677694023023 0.007464904601450917
0.000340552 0.00036268654209380884 0.00868125111239497 0.9985049370050184 -0.010108413354056168 0.9984696302069878 -0.005788757334831605 0.0012327592679945616 0.0060178622109040274
0.000341648 -0.0019085635225333684 0.006500489338538754 0.999007073934265 -0.007778130888297305 0.9959810606996495 -0.007445118793541542 0.002107289850202442 0.007657075570266678
0.000342744 -0.00023207428586482983 0.008420543462519555 1.0004344516178245 -0.008887241253022668 0.9959557982700233 -0.006444499436796658 0.0010468962093994933 0.006228940528301297
0.00034384 0.00259510636795968 0.009184113185557126 0.9960282454366969 -0.007880637220306045 0.9986337968154196 -0.007488218040154816 0.00039549215992261253 0.008504139243130475
0.000344936 -0.0011193638802567086 0.006326723820859621 0.9994605467551354 -0.005989133893855847 0.99611852588337 -0.00524194932246196 0.0037832712387269743 0.005468234728314648
0.000346032 -0.0015178378057766374 0.003988206777659669 0.9943822051955631 -0.006009065879371199 0.9998733674993585 -0.006245518208735221 -0.0014413675410758716 0.007944732040451076
0.000347128 0.002265705277855225 0.007072100762250705 0.9978415252922161 -0.0058648454988864404 0.9974377420036062 -0.008808931970887585 0.0030717158065226725 0.006996326372036433
0.000348224 0.0007908610228059602 0.00915471773893355 1.000330093182985 -0.008608927982180095 0.998623122405347 -0.006417798637672797 0.0001274265173044498 0.006594364250826003
0.00034932 -0.0011375237606508137 0.005323797383569797 0.9988084131612797 -0.007740510647001285 0.9982982079393439 -0.0040187798606134955 -0.0021402559522890716 0.002987880060560279
0.000350416 -0.0007755464910223353 0.006730279230289121 0.9988414456969642 -0.00692164178827984 0.9976073525317384 -0.008935989169782397 0.0015712988070616881 0.008407928467306498
0.000351512 0.0003984550486791017 0.008498900172583352 0.9992106982952512 -0.009081168500730603 0.9973613462487111 -0.008846728548834688 0.0025439284885190702 0.003993615443995622
0.000352607 0.0010658885471945224 0.009694112276421411 0.9972297555282149 -0.008833799877725881 0.998696485555575 -0.010901117311297599 0.0011682809790141437 0.011882697715784683
0.000353703 -0.0006968010946426936 0.0055956707101497815 1.0001083832320985 -0.005536074677767025 0.9966312445471587 -0.00536620188817862 0.0005942639754724697 0.0069412983670783445
0.000354799 0.002081171629390863 0.007735367575255571 0.9977999641016813 -0.009040961830667866 0.9978025509715194 -0.008047809749689114 0.0013355380273052508 0.007302311152773986
0.000355895 -0.002626816437775409 0.009579750720136065 1.0007094994623886 -0.009317124278883388 0.9951976519075317 -0.007085957416736624 0.00010886185668258872 0.007308938928807849
0.000356991 -0.00017739487630995853 0.00553123692852928 0.9943154566196517 -0.005418267667562546 0.9990381077654998 -0.0077681105093932315 0.00028114701452835235 0.006548292757443377
0.000358087 0.0023073883932559587 0.006497707957835777 0.9978425628176119 -0.010545204417842019 0.9993138277874992 -0.010015608474115253 0.0015305313107118932 0.005889544216989343
0.000359183 1.2211545544449781e-05 0.009999566574417912 0.9989677735571607 -0.009753209667882132 0.9970417809951663 -0.0067778776821637455 0.002085296611714161 0.005004641736998548
0.000360279 0.0014472837679388164 0.008319109398350774 0.9993522962535099 -0.010735021573519599 0.998861255410665 -0.007512070549237782 0.0017316375911675243 0.007261446322328395
0.000361375 0.00045009526402273837 0.008676467194802293 0.9977125739358166 -0.007352515628817399 0.9984647115028418 -0.009073252416254831 0.002225983265264351 0.007624978498487386
0.000362471 0.003884801644256583 0.009531182782800756 0.9993423844433681 -0.010950713195873122 0.9972303101051773 -0.006715245390092546 0.0037934512448677695 0.0048856387899105435
0.000363567 -4.5830767139709714e-05 0.007203253679179048 0.9998015061324869 -0.00465787270141344 0.9983772122131863 -0.009539382498286137 0.005012138736373262 0.005468220152734235
0.000364663 0.0001124263956870196 0.008473898942282138 0.9998280651367814 -0.008758523681663636 0.998823008711906 -0.007631939815310889 -0.0002532957803429158 0.007175523380303417
0.000365759 0.001359266528958732 0.0058411368590112695 0.9954351505134882 -0.008320422533301822 0.9954389683811259 -0.006905083049807345 0.00550493105348986 0.007080959172143669
0.000366855 -0.0004134864530360907 0.00801230470565691 0.9990545200367593 -0.008100007944823571 0.9979977996442212 -0.006501272447755682 0.0012089314726448405 0.006876893955755078
0.000367951 0.00419222400027302 0.009282984401959005 0.9956047565766863 -0.00993528747081975 0.9974163372920106 -0.007019228829230745 -0.0008535903400132194 0.006702853073138007
0.000369047 0.0020929960343463207 0.005126346415464409 0.9970172692908994 -0.004204810401173109 0.9978682700045016 -0.006468790993126815 -0.00019058025723008593 0.005914876528499005
0.000370143 0.0013054467764303092 0.007404304694069657 0.9984643392010201 -0.006434369221709333 0.999381821550489 -0.006637482896159512 0.002644799561296087 0.004820972690342038
0.000371239 -0.0023950111405338587 0.006120779919378826 1.000142074953117 -0.007994580525504925 0.9984655293898225 -0.006234443197354307 0.0020480230789447535 0.00792414394326372
0.000372335 0.0022903345642329475 0.0057509589916902686 0.9997084550290833 -0.0060444857535981444 0.9936179635416222 -0.006831344129707688 0.0020223016792084306 0.008555131544174286
0.000373431 0.004718006901778073 0.0047388961821238805 0.9962317278152156 -0.006413721913093007 0.9963454518348207 -0.008648824997238803 0.006039021335213318 0.009758538648738773
0.000374527 0.0042252158478913535 0.009325016302920567 0.9979616657169174 -0.009460563031101318 0.9955202079983069 -0.0071057777491023945 0.0011961510296088916 0.009092634462051712
0.000375623 0.002222457492739757 0.008416487545543892 0.9966601429649703 -0.007652138243787433 0.9978054496544241 -0.008017821672738687 0.002646497083867934 0.004656094230425392
0.000376719 0.003252590268088981 0.010094658530124336 0.9977077367732406 -0.005881312833111725 0.998237680437569 -0.004849776530224515 0.00098570440518586 0.0072094518940179495
0.000377815 0.0007448885399510021 0.00449571829210509 0.9976314170482931 -0.007181525588796463 0.9976080913712845 -0.007298125652986826 0.002640694946303078 0.007372883993360927
0.000378911 0.0040166164775393195 0.006579075982837739 0.9992635791341372 -0.006828387175350586 0.9962256682134842 -0.007348473418671887 0.0016488967075538577 0.006397358057370727
0.000380007 0.00287293886269255 0.00690546087850297 1.0003335213561435 -0.007969525902555584 0.9980540311661007 -0.007683406687353168 0.002503787186976696 0.009503689976293144
0.000381103 0.0020339156959319313 0.005861258139956027 0.9977265075042934 -0.00743212278171163 1.0004168301101768 -0.009063803374102905 0.00287258536889022 0.005974412993002028
0.000382199 0.0012310449309360387 0.010486936333577298 0.9974759836617759 -0.009127588575219026 0.9951028566876897 -0.00602795123777967 0.0014055543515683476 0.004837432983639899
0.000383295 0.0013898608945377355 0.006566129387626477 0.9973973339653097 -0.005598472479934384 0.9976180603662751 -0.0069714230847555715 0.0025882673584012674 0.008762892463706687
0.000384391 0.004491384110864172 0.006480933441149979 0.9938072755720398 -0.007468174116768906 0.9957960527625787 -0.007681101870344793 0.003015205591901957 0.005737175312979379
0.000385487 -0.00025148063759625715 0.004066512607618795 0.9979835664785782 -0.006148487372039012 0.9962272526789838 -0.010099614274589492 0.0023473114269151286 0.00868484604388933
0.000386583 0.0031346653009461456 0.00744195150404865 0.998579391828974 -0.007037193337513313 0.99398425304043 -0.010291749340472903 0.006539221317043351 0.010334482414055535
0.000387679 0.003023559314258911 0.007597714645784128 0.9984794688875652 -0.005195959152888974 0.9969680095364181 -0.0078098792638830105 0.002275772083982426 0.007730676617729783
0.000388775 0.0018024871488961675 0.004962101765251489 0.9982157049610856 -0.00585327903618898 0.9965054194711097 -0.0059051082303087305 0.0053966570202489015 0.006620644265052253
0.000389871 0.001675777726168988 0.006449905497051877 0.9969093985171834 -0.00852429438177604 0.9977220124926779 -0.007683553419668182 0.0024176679019529117 0.005550800147423402
0.000390967 0.0035192732786069624 0.006109004464606035 0.9968904385199511 -0.006589452985404022 0.9955232012594911 -0.01062866785631567 0.004801158988039355 0.010492959188735097
0.000392063 0.004109457552864221 0.007262146247334688 0.9975313612222366 -0.005564016763674014 0.9986150498332672 -0.007724890210451391 0.002331934426733914 0.0035459604545812753
0.000393159 0.0003464079597449225 0.010649933148117801 0.9967698461182515 -0.00832084752453923 0.9961148121632135 -0.007872844449898176 0.002914326653495888 0.007682595896660984
0.000394255 0.0009280809463599937 0.005129425235281162 0.9969874916775023 -0.009102218535097531 0.9991020788608856 -0.004824010559775911 0.0012111392019038536 0.0057908222046236515
0.000395351 0.001981386312280035 0.008477621020821701 0.9980539157475984 -0.008808921072388214 0.9980693750616267 -0.00535402887221022 0.0030449515507084595 0.004869366147755339
0.000396447 -0.0002707475710165748 0.0058226071982521365 0.9987490464347882 -0.007331977788929344 0.9997395052605694 -0.007576256199197184 0.0020077603968492452 0.007033800224906798
0.000397543 0.0011624035905496413 0.007301102379535511 0.9994210708650091 -0.00583897311965106 0.9982048208663916 -0.007681323363636664 0.0018837923988560996 0.006359413525057423
0.000398639 -0.0006991275783057923 0.006885424349192478 1.001215201595618 -0.005755882958804911 0.9964119969832801 -0.007297076477485214 0.0017578568770592643 0.006050346565769559
0.000399735 0.002003462500991465 0.004417959192982656 0.99765436635368 -0.005465654883956606 0.9990163569569168 -0.008246583302012523 0.0037241415819964144 0.0029953516735609542
0.000400831 0.002555119040642968 0.006498232237989347 0.9985676156423099 -0.00568419622963721 0.9981079580498063 -0.008533495895469994 0.0013777536129417924 0.00908705763167468
0.000401927 0.00313308471347421 0.0060768331758515705 0.9961636682266353 -0.004530187092949161 0.9950686810456157 -0.007133232159780411 -0.00027760473483061376 0.005017916308100973
0.000403023 -0.0021456740362236935 0.007938392857310949 1.0002489698373138 -0.006222331549604329 0.9979750357102892 -0.00657433320101685 0.0030430595309812827 0.0067347463662242825
0.000404119 -0.0004889164754267749 0.006424778044769475 1.0019592225621479 -0.006945798500651338 0.998711749673554 -0.007608382999847636 0.0029789313213438827 0.007538386684650101
0.000405215 -0.0012293546899120912 0.005313241805743808 0.9992564970157808 -0.006628273589381518 0.9972139545139933 -0.003569254670459769 0.002515648885353276 0.004669259196030003
0.000406311 0.0023576987432745973 0.008026908351372031 0.9985059299790127 -0.008518959283066549 0.9966699753959178 -0.0077785241733581345 0.004072127625661703 0.007667211049827168
0.000407407 0.0024670101710345385 0.008219788350830868 0.9993450789034527 -0.007391558105810867 0.9962948874527996 -0.008177251118196624 0.0037314504744458132 0.0067389416107132465
0.000408503 0.002998634943091836 0.00632731591292541 1.000410156679929 -0.007921313945161145 0.9961978953341929 -0.005753146329507779 0.0034963219061241156 0.006564286112710793
0.000409599 0.003844431009132827 0.006019932888926484 0.9980497143251993 -0.006921491124789269 0.9985885463845214 -0.007740696115538651 0.004493906870664474 0.004939603331901964
0.000410695 0.0012445896319774347 0.005654638133928844 0.9968489791073447 -0.005345081163839421 1.0001181908238288 -0.006242428583823958 0.002298861484676517 0.005275626672210323
0.000411791 0.0012637585471568088 0.007971844275062742 0.9993550956971929 -0.005855890762133386 0.9999259031728615 -0.008189589621508784 0.0032250389788749966 0.0064950995248285685
0.000412887 0.0017578488481603707 0.006899278959000204 0.9990194328915332 -0.007116536170715686 0.9992167210845458 -0.005186415679627211 0.0029366119003551667 0.008454317099428944
0.000413983 0.0011553879617430397 0.005360456614180722 0.9979156287723606 -0.007905150217011811 0.9999137737400691 -0.006723364095803101 0.0027813586504732194 0.007893698316639884
0.000415079 0.0006740427678386843 0.006439119636038391 0.9992267940536951 -0.0068076919250612995 0.9985688244621972 -0.005645195546297412 0.0025949788830849836 0.006042416378005126
0.000416364 0.0011837610779460062 0.007415252578098916 0.9969132541676093 -0.007070259206765879 0.9966069220432335 -0.005862042115190245 0.005019049828498676 0.005706609367186743
0.000417886 0.0009422003524694586 0.006556273319578127 1.0008589873501588 -0.00570589358812614 0.9941764732872774 -0.005911319688932418 0.004582927730147521 0.005261899228735504
